time;I(R2);V(Net-_R1-Pad1_);
0;0;0;
1e-08;-1.06148e-08;1.06255e-08;
2e-08;-2.12295e-08;2.12511e-08;
4e-08;-4.24587e-08;4.25021e-08;
8e-08;-8.49159e-08;8.50043e-08;
1.6e-07;-1.69825e-07;1.70009e-07;
3.2e-07;-3.39623e-07;3.40017e-07;
6.4e-07;-6.79138e-07;6.80034e-07;
1.28e-06;-1.35784e-06;1.36007e-06;
2.56e-06;-2.71395e-06;2.72014e-06;
5.12e-06;-5.42097e-06;5.44028e-06;
1.024e-05;-1.08143e-05;1.08806e-05;
2.048e-05;-2.15186e-05;2.17611e-05;
4.096e-05;-4.2602e-05;4.35222e-05;
8.192e-05;-8.35007e-05;8.70444e-05;
0.00016384;-0.000160475;0.000174089;
0.00032768;-0.000296955;0.000348178;
0.00065536;-0.000512325;0.000696355;
0.00124977;-0.000764258;0.00132795;
0.00215887;-0.000950566;0.00229391;
0.00315887;-0.00102517;0.00335646;
0.00415887;-0.00105008;0.00441902;
0.005;-0.00105746;0.00531277;
0.0051;-0.000785956;0.00511959;
0.0053;-0.000292268;0.00473323;
0.0057;0.000448469;0.00396051;
0.0065;0.00129548;0.00241507;
0.0075;0.00171941;0.000483279;
0.0085;0.00186091;-0.00144852;
0.0095;0.00190813;-0.00338031;
0.01;0.00191759;-0.00434621;
0.0101;0.00181998;-0.0044305;
0.0103;0.00164249;-0.00459908;
0.0107;0.00137618;-0.00493624;
0.0115;0.00107167;-0.00561056;
0.0125;0.000919257;-0.00645346;
0.0135;0.000868386;-0.00729636;
0.0145;0.000851407;-0.00813926;
0.015;0.000848007;-0.00856071;
0.0151;0.000684043;-0.00846499;
0.0153;0.000385899;-0.00827354;
0.0157;-6.14403e-05;-0.00789064;
0.0165;-0.000572959;-0.00712485;
0.0175;-0.000828974;-0.00616762;
0.0185;-0.000914426;-0.00521038;
0.0195;-0.000942948;-0.00425314;
0.02;-0.000948659;-0.00377452;
0.0201;-0.00106489;-0.00355169;
0.0203;-0.00127623;-0.00310603;
0.0207;-0.00159333;-0.0022147;
0.0215;-0.00195592;-0.000432038;
0.0225;-0.0021374;0.00179628;
0.0235;-0.00219798;0.00402461;
0.0245;-0.00221819;0.00625293;
0.025;-0.00222224;0.00736709;
0.0251;-0.00200475;0.00734985;
0.0253;-0.00160926;0.00731537;
0.0257;-0.00101587;0.00724642;
0.0265;-0.000337348;0.0071085;
0.0275;2.25284e-06;0.00693611;
0.0285;0.000115604;0.00676372;
0.0295;0.000153438;0.00659132;
0.03;0.000161014;0.00650513;
0.0301;0.000159243;0.00649098;
0.0303;0.000156023;0.00646267;
0.0307;0.000151191;0.00640607;
0.0315;0.000145666;0.00629286;
0.0325;0.0001429;0.00615134;
0.0335;0.000141977;0.00600983;
0.0345;0.000141669;0.00586831;
0.035;0.000141608;0.00579755;
0.0351;0.000420489;0.00547634;
0.0353;0.000927592;0.00483393;
0.0357;0.00168846;0.00354909;
0.0365;0.00255848;0.000979416;
0.0375;0.00299393;-0.00223268;
0.0385;0.00313927;-0.00544477;
0.0395;0.00318779;-0.00865686;
0.04;0.0031975;-0.0102629;
0.0401;0.00269262;-0.0100268;
0.0403;0.00177456;-0.00955452;
0.0407;0.000397098;-0.00861001;
0.0415;-0.00117799;-0.00672099;
0.0425;-0.00196632;-0.00435972;
0.0435;-0.00222945;-0.00199844;
0.0445;-0.00231727;0.000362829;
0.045;-0.00233486;0.00154347;
0.0451;-0.00213551;0.00155746;
0.0453;-0.00177301;0.00158546;
0.0457;-0.00122912;0.00164144;
0.0465;-0.00060719;0.00175342;
0.0472904;-0.000342693;0.00186405;
0.0482904;-0.000207633;0.00200402;
0.0492904;-0.000162554;0.00214399;
0.05;-0.000150733;0.00224331;
0.0501;-0.00019652;0.00230879;
0.0503;-0.000279776;0.00243976;
0.0507;-0.000404694;0.0027017;
0.0515;-0.000547535;0.00322557;
0.0525;-0.000619026;0.00388042;
0.0535;-0.000642889;0.00453526;
0.0545;-0.000650853;0.00519011;
0.055;-0.000652448;0.00551753;
0.0551;-0.000409056;0.0053148;
0.0553;3.35153e-05;0.00490934;
0.0557;0.000697557;0.00409842;
0.0565;0.00145687;0.00247658;
0.0575;0.0018369;0.00044928;
0.0585;0.00196375;-0.00157802;
0.0595;0.00200609;-0.00360532;
0.06;0.00201457;-0.00461897;
0.0601;0.00183856;-0.00462664;
0.0603;0.00151852;-0.00464199;
0.0607;0.00103832;-0.00467268;
0.0615;0.000489232;-0.00473406;
0.0625;0.000214414;-0.00481079;
0.0635;0.000122685;-0.00488752;
0.0645;9.20684e-05;-0.00496425;
0.065;8.59377e-05;-0.00500261;
0.0651;-7.87676e-05;-0.00482987;
0.0653;-0.000378259;-0.00448437;
0.0657;-0.000827621;-0.00379339;
0.0665;-0.00134145;-0.00241141;
0.0675;-0.00159862;-0.000683945;
0.0685;-0.00168446;0.00104352;
0.0695;-0.00171311;0.00277099;
0.07;-0.00171885;0.00363472;
0.0701;-0.00144839;0.00350884;
0.0703;-0.000956611;0.00325706;
0.0707;-0.000218731;0.00275351;
0.0715;0.000625012;0.00174641;
0.0725;0.0010473;0.000487541;
0.0735;0.00118826;-0.000771332;
0.0745;0.0012353;-0.00203021;
0.075;0.00124472;-0.00265964;
0.0751;0.00106073;-0.00258154;
0.0753;0.000726172;-0.00242534;
0.0757;0.000224193;-0.00211293;
0.0765;-0.000349805;-0.00148811;
0.0775;-0.000637091;-0.00070709;
0.0785;-0.00073298;7.39316e-05;
0.0795;-0.000764986;0.000854953;
0.08;-0.000771395;0.00124546;
0.0801;-0.000637777;0.00117549;
0.0803;-0.000394814;0.00103554;
0.0807;-3.02678e-05;0.000755648;
0.0815;0.000386579;0.000195859;
0.0822682;0.000560263;-0.000341686;
0.083224;0.000650404;-0.0010105;
0.084224;0.00068327;-0.00171024;
0.085;0.000692469;-0.00225322;
0.0851;0.000622481;-0.00224541;
0.0853;0.000495219;-0.00222979;
0.0857;0.000304273;-0.00219855;
0.0865;8.59325e-05;-0.00213607;
0.0875;-2.3347e-05;-0.00205798;
0.0885;-5.9822e-05;-0.00197988;
0.0895;-7.19966e-05;-0.00190178;
0.09;-7.44344e-05;-0.00186274;
0.0901;-8.89745e-05;-0.00183928;
0.0903;-0.000115413;-0.00179238;
0.0907;-0.000155082;-0.00169857;
0.0915;-0.000200443;-0.00151096;
0.0925;-0.000223146;-0.00127644;
0.0935;-0.000230724;-0.00104192;
0.0945;-0.000233253;-0.000807396;
0.095;-0.000233759;-0.000690136;
0.0951;-0.000272955;-0.000623606;
0.0953;-0.000344225;-0.000490546;
0.0957;-0.00045116;-0.000224427;
0.0965;-0.000573437;0.000307811;
0.0975;-0.000634636;0.000973108;
0.0985;-0.000655063;0.00163841;
0.0995;-0.000661882;0.0023037;
0.1;-0.000663247;0.00263635;
0.1001;-0.000395683;0.00240809;
0.1003;9.08418e-05;0.00195156;
0.1007;0.000820831;0.00103851;
0.1015;0.00165555;-0.0007876;
0.102369;0.00203527;-0.00277203;
0.103369;0.00220007;-0.00505467;
0.104369;0.00225508;-0.0073373;
0.105;0.00226828;-0.00877682;
0.1051;0.00183141;-0.00852265;
0.1053;0.00103702;-0.00801432;
0.1057;-0.000154885;-0.00699765;
0.1065;-0.00151779;-0.0049643;
0.1075;-0.00219993;-0.00242262;
0.1085;-0.00242761;0.000119061;
0.1095;-0.00250361;0.00266074;
0.11;-0.00251882;0.00393158;
0.1101;-0.00226787;0.00390716;
0.1103;-0.00181155;0.00385832;
0.1107;-0.00112687;0.00376065;
0.1115;-0.000343964;0.00356529;
0.1125;4.78805e-05;0.0033211;
0.1135;0.000178669;0.0030769;
0.1145;0.000222324;0.00283271;
0.115;0.000231065;0.00271061;
0.1151;0.000237503;0.00268042;
0.1153;0.000249209;0.00262003;
0.1157;0.000266772;0.00249925;
0.1165;0.000286856;0.00225769;
0.1175;0.000296908;0.00195575;
0.1185;0.000300263;0.00165381;
0.1195;0.000301383;0.00135186;
0.12;0.000301607;0.00120089;
0.1201;0.000367074;0.00109865;
0.1203;0.000486114;0.000894172;
0.1207;0.000664725;0.000485215;
0.1215;0.00086896;-0.000332698;
0.1225;0.00097118;-0.00135509;
0.1235;0.0010053;-0.00237748;
0.1245;0.00101669;-0.00339987;
0.125;0.00101897;-0.00391107;
0.1251;0.000910016;-0.00389301;
0.1253;0.000711904;-0.00385689;
0.1257;0.000414655;-0.00378466;
0.1265;7.47599e-05;-0.00364019;
0.1275;-9.53576e-05;-0.0034596;
0.1285;-0.000152139;-0.00327902;
0.1295;-0.000171091;-0.00309843;
0.13;-0.000174886;-0.00300814;
0.1301;-0.000260291;-0.00289662;
0.1303;-0.000415586;-0.00267358;
0.1307;-0.000648593;-0.0022275;
0.1315;-0.000915029;-0.00133535;
0.1325;-0.00104838;-0.000220163;
0.1335;-0.00109289;0.000895026;
0.1345;-0.00110775;0.00201022;
0.135;-0.00111072;0.00256781;
0.1351;-0.00102031;0.00257934;
0.1353;-0.000855916;0.0026024;
0.1357;-0.000609254;0.00264853;
0.1365;-0.000327203;0.00274078;
0.1375;-0.000186037;0.00285609;
0.1385;-0.000138918;0.0029714;
0.1395;-0.000123191;0.00308672;
0.14;-0.000120042;0.00314437;
0.1401;-0.000179012;0.0032213;
0.1403;-0.000286241;0.00337516;
0.1407;-0.000447128;0.00368288;
0.1415;-0.000631097;0.00429833;
0.1425;-0.000723173;0.00506763;
0.1435;-0.000753906;0.00583694;
0.1445;-0.000764164;0.00660624;
0.145;-0.000766218;0.00699089;
0.1451;-0.000673426;0.00696535;
0.1453;-0.000504698;0.00691426;
0.1457;-0.000251536;0.0068121;
0.1465;3.79472e-05;0.00660776;
0.1475;0.000182833;0.00635234;
0.1485;0.000231193;0.00609692;
0.1495;0.000247335;0.00584149;
0.15;0.000250567;0.00571378;
0.1501;0.000304644;0.00562919;
0.1503;0.000402975;0.00546;
0.1507;0.000550513;0.00512161;
0.1515;0.000719218;0.00444485;
0.1525;0.000803655;0.00359889;
0.1535;0.000831838;0.00275293;
0.1545;0.000841245;0.00190697;
0.155;0.000843129;0.00148399;
0.1551;0.000804368;0.00144236;
0.1553;0.000733887;0.00135908;
0.1557;0.000628136;0.00119253;
0.1565;0.000507213;0.000859438;
0.1575;0.000446691;0.000443069;
0.1585;0.00042649;2.66995e-05;
0.1595;0.000419747;-0.00038967;
0.16;0.000418397;-0.000597855;
0.1601;0.000502385;-0.000732165;
0.1603;0.000655103;-0.00100078;
0.1607;0.000884245;-0.00153802;
0.1615;0.00114626;-0.0026125;
0.1625;0.0012774;-0.0039556;
0.1635;0.00132117;-0.0052987;
0.1645;0.00133578;-0.0066418;
0.165;0.00133871;-0.00731335;
0.1651;0.00124237;-0.00734116;
0.1653;0.0010672;-0.00739677;
0.1657;0.000804374;-0.007508;
0.1665;0.000503839;-0.00773045;
0.1675;0.000353421;-0.00800851;
0.1685;0.000303215;-0.00828657;
0.1695;0.000286457;-0.00856463;
0.17;0.000283102;-0.00870366;
0.1701;0.00016159;-0.00859819;
0.1703;-5.93608e-05;-0.00838724;
0.1707;-0.000390879;-0.00796534;
0.1715;-0.00076996;-0.00712155;
0.1725;-0.000959689;-0.0060668;
0.1735;-0.00102302;-0.00501206;
0.1745;-0.00104415;-0.00395732;
0.175;-0.00104839;-0.00342994;
0.1751;-0.000822733;-0.00357355;
0.1753;-0.000412418;-0.00386076;
0.1757;0.000203227;-0.00443518;
0.1765;0.000907197;-0.00558403;
0.1775;0.00125953;-0.00702008;
0.1785;0.00137714;-0.00845614;
0.1795;0.00141639;-0.00989219;
0.18;0.00142425;-0.0106102;
0.1801;0.00114423;-0.0104443;
0.1803;0.000635071;-0.0101126;
0.1807;-0.000128887;-0.00944912;
0.1815;-0.00100245;-0.00812215;
0.1825;-0.00143967;-0.00646344;
0.1835;-0.0015856;-0.00480473;
0.1845;-0.00163431;-0.00314602;
0.185;-0.00164406;-0.00231666;
0.1851;-0.00135092;-0.002475;
0.1853;-0.000817888;-0.00279169;
0.1857;-1.81178e-05;-0.00342506;
0.1865;0.000896395;-0.00469179;
0.1875;0.00135411;-0.00627522;
0.1885;0.00150688;-0.00785864;
0.1895;0.00155788;-0.00944206;
0.19;0.00156809;-0.0102338;
0.1901;0.001151;-0.00993137;
0.1903;0.000392584;-0.00932655;
0.1907;-0.000745351;-0.00811693;
0.1915;-0.00204654;-0.00569768;
0.1925;-0.00269779;-0.00267361;
0.1935;-0.00291516;0.000350455;
0.1945;-0.00298772;0.00337452;
0.195;-0.00300224;0.00488655;
0.1951;-0.00274109;0.00489925;
0.1953;-0.00226623;0.00492464;
0.1957;-0.00155374;0.00497543;
0.1965;-0.000739023;0.00507701;
0.1975;-0.000331259;0.00520398;
0.1985;-0.000195156;0.00533094;
0.1995;-0.000149728;0.00545791;
0.2;-0.000140632;0.0055214;
0.2001;-0.000247834;0.00565349;
0.2003;-0.000442765;0.00591768;
0.2007;-0.000735242;0.00644605;
0.2015;-0.00106968;0.00750279;
0.2025;-0.00123707;0.00882372;
0.2035;-0.00129294;0.0101446;
0.2045;-0.00131158;0.0114656;
0.205;-0.00131532;0.012126;
0.2051;-0.000840136;0.0117344;
0.2053;2.39118e-05;0.0109511;
0.2057;0.00132034;0.00938452;
0.2065;0.00280277;0.00625137;
0.2075;0.00354473;0.00233492;
0.2085;0.00379237;-0.00158153;
0.2095;0.00387503;-0.00549797;
0.21;0.00389159;-0.0074562;
0.2101;0.00339727;-0.00730111;
0.2103;0.00249842;-0.00699094;
0.2107;0.00114979;-0.00637059;
0.2115;-0.00039234;-0.0051299;
0.2125;-0.00116417;-0.00357904;
0.2135;-0.00142179;-0.00202818;
0.2145;-0.00150778;-0.000477313;
0.215;-0.001525;0.000298118;
0.2151;-0.00138414;0.000295531;
0.2153;-0.00112801;0.000290357;
0.2157;-0.000743702;0.000280009;
0.216378;-0.000354482;0.000262478;
0.216979;-0.000178677;0.000246911;
0.217581;-8.41268e-05;0.000231342;
0.218178;-3.36124e-05;0.000215905;
0.219122;4.5168e-06;0.000191475;
0.22;1.75348e-05;0.000168766;
0.2201;2.30462e-06;0.000183781;
0.2203;-2.53891e-05;0.00021381;
0.2207;-6.69412e-05;0.00027387;
0.2215;-0.000114455;0.00039399;
0.2225;-0.000138235;0.000544139;
0.2235;-0.000146173;0.000694288;
0.2245;-0.000148822;0.000844438;
0.225;-0.000149353;0.000919513;
0.2251;-0.000157521;0.000943441;
0.2253;-0.000172373;0.000991298;
0.2257;-0.000194659;0.00108701;
0.2265;-0.000220141;0.00127844;
0.2275;-0.000232895;0.00151772;
0.2285;-0.000237152;0.00175701;
0.2295;-0.000238573;0.00199629;
0.23;-0.000238857;0.00211594;
0.2301;-0.000240777;0.00214193;
0.2303;-0.000244267;0.00219393;
0.2307;-0.000249504;0.00229793;
0.2315;-0.000255493;0.00250592;
0.2325;-0.00025849;0.00276592;
0.2335;-0.000259491;0.00302591;
0.2345;-0.000259824;0.0032859;
0.235;-0.000259891;0.00341589;
0.2351;-0.000114595;0.00328191;
0.2353;0.000149605;0.00301395;
0.2357;0.000546014;0.00247802;
0.2365;0.000999296;0.00140616;
0.2375;0.00122616;6.63354e-05;
0.2385;0.00130189;-0.00127349;
0.2395;0.00132716;-0.00261331;
0.24;0.00133222;-0.00328322;
0.2401;0.00128993;-0.00336988;
0.2403;0.00121303;-0.0035432;
0.2407;0.00109764;-0.00388983;
0.2415;0.000965701;-0.00458309;
0.2425;0.000899664;-0.00544967;
0.2435;0.000877623;-0.00631626;
0.2445;0.000870266;-0.00718284;
0.245;0.000868793;-0.00761613;
0.2451;0.000576787;-0.00738151;
0.2453;4.58177e-05;-0.00691227;
0.2457;-0.000750857;-0.00597379;
0.2465;-0.00166183;-0.00409683;
0.2475;-0.00211777;-0.00175063;
0.2485;-0.00226995;0.000595565;
0.2495;-0.00232075;0.00294176;
0.25;-0.00233092;0.00411486;
0.2501;-0.00204233;0.00403021;
0.2503;-0.00151757;0.00386092;
0.2507;-0.000730211;0.00352233;
0.2515;0.000170109;0.00284515;
0.2525;0.000620719;0.00199868;
0.2535;0.000771122;0.0011522;
0.2545;0.000821323;0.000305727;
0.255;0.000831376;-0.00011751;
0.2551;0.000838858;-0.000208885;
0.2553;0.000852463;-0.000391636;
0.2557;0.000872876;-0.000757137;
0.2565;0.000896217;-0.00148814;
0.2575;0.0009079;-0.00240189;
0.2585;0.000911799;-0.00331564;
0.2595;0.000913101;-0.0042294;
0.26;0.000913361;-0.00468627;
0.2601;0.00069084;-0.00453261;
0.2603;0.000286218;-0.00422529;
0.2607;-0.000320883;-0.00361065;
0.2615;-0.00101508;-0.00238137;
0.2625;-0.00136253;-0.00084477;
0.2635;-0.0014785;0.000691832;
0.2645;-0.00151721;0.00222843;
0.265;-0.00152496;0.00299673;
0.2651;-0.00126593;0.00286404;
0.2653;-0.000794914;0.00259864;
0.2657;-8.81991e-05;0.00206784;
0.2665;0.000719907;0.00100624;
0.267411;0.00109976;-0.000203285;
0.268411;0.00125115;-0.00153028;
0.269411;0.00130168;-0.00285728;
0.27;0.00131318;-0.00363825;
0.2701;0.00118813;-0.00363189;
0.2703;0.000960736;-0.00361915;
0.2707;0.000619551;-0.00359368;
0.2715;0.000229417;-0.00354275;
0.2725;3.41551e-05;-0.00347907;
0.2735;-3.1019e-05;-0.0034154;
0.2745;-5.27726e-05;-0.00335173;
0.275;-5.71286e-05;-0.0033199;
0.2751;-0.000205488;-0.00315084;
0.2753;-0.000475257;-0.00281273;
0.2757;-0.000880022;-0.0021365;
0.2765;-0.00134286;-0.000784048;
0.2775;-0.00157451;0.000906518;
0.2785;-0.00165183;0.00259708;
0.2795;-0.00167764;0.00428765;
0.28;-0.0016828;0.00513293;
0.2801;-0.00163355;0.00524699;
0.2803;-0.001544;0.0054751;
0.2807;-0.00140963;0.00593132;
0.2815;-0.00125598;0.00684376;
0.2825;-0.00117908;0.00798432;
0.2835;-0.00115341;0.00912487;
0.2845;-0.00114485;0.0102654;
0.285;-0.00114313;0.0108357;
0.2851;-0.000882688;0.0106633;
0.2853;-0.000409113;0.0103184;
0.2857;0.000301446;0.00962866;
0.2865;0.00111395;0.00824919;
0.2875;0.0015206;0.00652485;
0.2885;0.00165634;0.00480051;
0.2895;0.00170164;0.00307617;
0.29;0.00171071;0.002214;
0.2901;0.00152356;0.00224899;
0.2903;0.00118325;0.00231896;
0.2907;0.000672634;0.00245891;
0.2915;8.87655e-05;0.0027388;
0.2925;-0.000203461;0.00308866;
0.2935;-0.000300999;0.00343853;
0.2945;-0.000333555;0.0037884;
0.295;-0.000340074;0.00396333;
0.2951;-0.000255992;0.00390476;
0.2953;-0.000103102;0.00378763;
0.2957;0.000126297;0.00355336;
0.2965;0.000388607;0.00308483;
0.2975;0.000519894;0.00249916;
0.2985;0.000563714;0.00191349;
0.2995;0.00057834;0.00132782;
0.3;0.000581269;0.00103499;
0.3001;0.000502518;0.00106357;
0.3003;0.000359322;0.00112072;
0.3007;0.000144469;0.00123503;
0.3015;-0.00010121;0.00146365;
0.3025;-0.000224172;0.00174943;
0.3035;-0.000265214;0.0020352;
0.3045;-0.000278913;0.00232098;
0.305;-0.000281656;0.00246387;
0.3051;-0.000284149;0.00249478;
0.3053;-0.000288682;0.0025566;
0.3057;-0.000295482;0.00268024;
0.3065;-0.000303259;0.00292752;
0.3075;-0.000307151;0.00323662;
0.3085;-0.00030845;0.00354572;
0.3095;-0.000308884;0.00385483;
0.31;-0.000308971;0.00400938;
0.3101;-0.000244209;0.00396897;
0.3103;-0.000126449;0.00388816;
0.3107;5.02403e-05;0.00372653;
0.3115;0.000252279;0.00340329;
0.3125;0.000353399;0.00299923;
0.3135;0.000387151;0.00259517;
0.3145;0.000398416;0.0021911;
0.315;0.000400672;0.00198907;
0.3151;0.000465031;0.00187815;
0.3153;0.000582059;0.00165629;
0.3157;0.000757649;0.00121259;
0.3165;0.000958431;0.000325172;
0.3175;0.00105892;-0.000784097;
0.3185;0.00109246;-0.00189337;
0.3195;0.00110366;-0.00300263;
0.32;0.0011059;-0.00355727;
0.3201;0.000790617;-0.00332073;
0.3203;0.000217321;-0.00284765;
0.3207;-0.000642862;-0.0019015;
0.3215;-0.00162645;-9.20044e-06;
0.322437;-0.00209754;0.00220661;
0.323437;-0.00227598;0.00457199;
0.324437;-0.00233554;0.00693737;
0.325;-0.00234864;0.00826963;
0.3251;-0.00200366;0.00812467;
0.3253;-0.00137637;0.00783475;
0.3257;-0.000435163;0.00725491;
0.3265;0.000641074;0.00609523;
0.3275;0.00117973;0.00464563;
0.3285;0.00135952;0.00319603;
0.3295;0.00141953;0.00174644;
0.33;0.00143155;0.00102164;
0.3301;0.00136335;0.000953575;
0.3303;0.00123933;0.000817449;
0.3307;0.00105325;0.000545197;
0.3315;0.000840477;6.92726e-07;
0.3325;0.000733983;-0.000679938;
0.3335;0.000698438;-0.00136057;
0.3345;0.000686574;-0.0020412;
0.335;0.000684199;-0.00238151;
0.3351;0.00056266;-0.00231612;
0.3353;0.00034166;-0.00218533;
0.3357;1.0069e-05;-0.00192375;
0.3365;-0.000369095;-0.0014006;
0.3375;-0.000558867;-0.000746657;
0.3385;-0.000622209;-9.27143e-05;
0.3395;-0.00064335;0.000561228;
0.34;-0.000647584;0.0008882;
0.3401;-0.00055644;0.000852609;
0.3403;-0.00039071;0.000781428;
0.3407;-0.000142045;0.000639065;
0.3415;0.000142296;0.00035434;
0.34227;0.000260951;8.03487e-05;
0.34327;0.000324212;-0.000275558;
0.344249;0.000345027;-0.000623914;
0.345;0.000350965;-0.000891333;
0.3451;0.000288807;-0.000857994;
0.3453;0.000175784;-0.000791317;
0.3457;6.20163e-06;-0.000657962;
0.3465;-0.00018771;-0.000391252;
0.3475;-0.000284763;-5.78652e-05;
0.3485;-0.000317158;0.000275522;
0.3495;-0.00032797;0.000608909;
0.35;-0.000330135;0.000775602;
0.3501;-0.00050203;0.000997872;
0.3503;-0.000814595;0.00144241;
0.3507;-0.00128357;0.00233149;
0.3515;-0.00181983;0.00410965;
0.3525;-0.00208823;0.00633235;
0.3535;-0.00217782;0.00855505;
0.3545;-0.00220772;0.0107778;
0.355;-0.00221371;0.0118891;
0.3551;-0.00176383;0.0116152;
0.3553;-0.000945807;0.0110673;
0.3557;0.000281573;0.00997152;
0.3565;0.00168504;0.00778;
0.3575;0.00238748;0.0050406;
0.3585;0.00262194;0.0023012;
0.3595;0.0027002;-0.000438205;
0.36;0.00271587;-0.00180791;
0.3601;0.00231647;-0.00163976;
0.3603;0.00159023;-0.00130346;
0.3607;0.000500572;-0.000630876;
0.36103;-0.000116472;-7.65293e-05;
0.361394;-0.000598896;0.000536857;
0.361776;-0.000945604;0.00117868;
0.362378;-0.00128564;0.00219015;
0.363286;-0.0015327;0.0037173;
0.364286;-0.00163182;0.00539877;
0.365;-0.00165793;0.00659945;
0.3651;-0.00138147;0.00646087;
0.3653;-0.000878788;0.00618371;
0.3657;-0.000124549;0.00562938;
0.3665;0.000737899;0.00452073;
0.3675;0.00116955;0.00313492;
0.3685;0.00131363;0.00174911;
0.3695;0.00136172;0.000363295;
0.37;0.00137135;-0.000329611;
0.3701;0.00117683;-0.000252579;
0.3703;0.000823122;-9.85138e-05;
0.3707;0.000292416;0.000209616;
0.371234;-0.000155452;0.00062133;
0.371882;-0.000456098;0.00112037;
0.372693;-0.00063729;0.00174513;
0.373693;-0.000725921;0.00251545;
0.374693;-0.000755503;0.00328578;
0.375;-0.000759441;0.00352201;
0.3751;-0.000568807;0.00338807;
0.3753;-0.000222167;0.00312018;
0.3757;0.000297936;0.0025844;
0.3765;0.000892658;0.00151285;
0.3775;0.00119032;0.000173406;
0.3785;0.00128967;-0.00116604;
0.3795;0.00132283;-0.00250548;
0.38;0.00132947;-0.0031752;
0.3801;0.00108781;-0.00304208;
0.3803;0.000648387;-0.00277584;
0.3807;-1.09294e-05;-0.00224335;
0.3815;-0.000764837;-0.00117839;
0.3825;-0.00114217;0.000152824;
0.3835;-0.00126811;0.00148403;
