time;I(R2);V(Net-_R1-Pad1_);
0;0;0;
1e-05;4.81129e-06;-5.29723e-06;
1.08959e-05;5.23853e-06;-5.77183e-06;
1.26878e-05;6.08543e-06;-6.72104e-06;
1.62716e-05;7.73455e-06;-8.61944e-06;
2.34392e-05;1.08618e-05;-1.24163e-05;
3.77743e-05;1.64894e-05;-2.00099e-05;
6.64445e-05;2.56297e-05;-3.51972e-05;
0.000123785;3.78052e-05;-6.55717e-05;
0.000216144;4.73815e-05;-0.000114496;
0.00036183;5.20911e-05;-0.00019167;
0.000597889;5.30447e-05;-0.000316715;
0.001;5.2948e-05;-0.000529723;
0.00104437;3.3376e-05;-0.000524941;
0.00113311;6.25414e-06;-0.000515376;
0.0013106;-9.75353e-06;-0.000496247;
0.00166557;-1.10634e-05;-0.000457989;
0.002;-1.07062e-05;-0.000421944;
0.0020339;-5.69657e-05;-0.000356329;
0.00210169;-0.000126081;-0.000225099;
0.00223728;-0.000180587;3.73623e-05;
0.00242612;-0.000193196;0.000402927;
0.00260431;-0.000193553;0.000747847;
0.00296068;-0.000193581;0.00143769;
0.003;-0.000193579;0.00151381;
0.00302017;-0.00013477;0.00148212;
0.0030605;-3.68739e-05;0.00141874;
0.00314117;7.45697e-05;0.00129198;
0.0033025;0.000148263;0.00103846;
0.00350654;0.000157225;0.000717828;
0.00379096;0.000157126;0.000270885;
0.004;0.000157141;-5.75989e-05;
0.00404018;0.000173984;-0.000144364;
0.00412054;0.000198021;-0.000317895;
0.00428126;0.000213983;-0.000664957;
0.00460269;0.0002164;-0.00135908;
0.005;0.000215794;-0.00221704;
0.00505127;0.000102095;-0.00215557;
0.0051538;-4.82859e-05;-0.00203262;
0.00535886;-0.00012077;-0.00178673;
0.00566243;-0.000119734;-0.00142272;
0.00599479;-0.000119954;-0.00102418;
0.006;-0.000119952;-0.00101794;
0.00601041;-0.000140713;-0.000982504;
0.00603123;-0.000178324;-0.000911642;
0.00607287;-0.000234117;-0.000769918;
0.00615616;-0.000296528;-0.000486469;
0.00632273;-0.000336318;8.04285e-05;
0.00652979;-0.000340402;0.000785118;
0.00682913;-0.000340321;0.00180387;
0.007;-0.000340333;0.00238541;
0.00705987;-0.000146953;0.00227981;
0.0071796;9.50627e-05;0.00206862;
0.00741908;0.000183645;0.00164624;
0.0076925;0.000175259;0.00116396;
0.00799764;0.000176615;0.000625751;
0.008;0.000176609;0.000621594;
0.00800471;0.000174025;0.000615979;
0.00801414;0.000169089;0.000604748;
0.00803299;0.000160491;0.000582287;
0.0080707;0.000147383;0.000537364;
0.00814611;0.000131927;0.000447518;
0.00829694;0.000120938;0.000267827;
0.00859859;0.000118775;-9.15555e-05;
0.00895939;0.000119243;-0.000521417;
0.009;0.000119208;-0.000569796;
0.00901619;9.72595e-05;-0.00056357;
0.00904856;5.9473e-05;-0.000551117;
0.00911331;1.16035e-05;-0.00052621;
0.00924281;-2.77286e-05;-0.000476398;
0.00942974;-3.80969e-05;-0.000404498;
0.00967301;-3.85009e-05;-0.000310923;
0.01;-3.84566e-05;-0.000185145;
0.010036;-1.73102e-06;-0.000221284;
0.010108;5.22924e-05;-0.000293562;
0.010252;9.25381e-05;-0.000438119;
0.010491;0.000101088;-0.000678065;
0.0107353;0.000100325;-0.000923354;
0.011;0.000100403;-0.00118908;
0.0110489;2.1978e-05;-0.00112132;
0.0111466;-8.34201e-05;-0.000985789;
0.0113421;-0.000138012;-0.000714734;
0.0115778;-0.000138728;-0.000387784;
0.0118553;-0.000138665;-2.94985e-06;
0.012;-0.000138672;0.000197657;
0.01201;-0.000121009;0.000192035;
0.0120299;-8.88809e-05;0.000180792;
0.0120698;-4.06295e-05;0.000158306;
0.0121495;1.46459e-05;0.000113333;
0.0122382;4.02857e-05;6.33125e-05;
0.0123527;5.20189e-05;-1.2781e-06;
0.0124731;5.53174e-05;-6.92182e-05;
0.0126314;5.62821e-05;-0.000158535;
0.0129274;5.64342e-05;-0.000325481;
0.013;5.64211e-05;-0.000366439;
0.0130136;3.35598e-05;-0.000348131;
0.0130409;-6.68187e-06;-0.000311513;
0.0130954;-6.13195e-05;-0.000238279;
0.0132045;-0.000112787;-9.1809e-05;
0.0133358;-0.000129816;8.44631e-05;
0.0134816;-0.000133584;0.000280226;
0.0136847;-0.000134293;0.000553051;
0.014;-0.000134286;0.000976437;
0.0140406;-7.28524e-05;0.000944544;
0.0141219;1.45407e-05;0.000880757;
0.0142844;7.18503e-05;0.000753184;
0.0145143;7.89492e-05;0.000572767;
0.0147722;7.84335e-05;0.000370322;
0.015;7.84949e-05;0.000191525;
0.0150428;3.3556e-05;0.000222144;
0.0151284;-2.93983e-05;0.000283381;
0.0152997;-6.8238e-05;0.000405855;
0.015534;-7.17807e-05;0.000573487;
0.0157801;-7.14959e-05;0.000749452;
0.016;-7.15236e-05;0.000906749;
0.0160492;2.41775e-05;0.000799055;
0.0161476;0.000152501;0.000583668;
0.0163444;0.0002183;0.000152894;
0.0165513;0.000218874;-0.000299821;
0.0167448;0.000218865;-0.000723316;
0.017;0.000218865;-0.0012819;
0.0170387;0.000137536;-0.00125372;
0.0171161;2.02296e-05;-0.00119735;
0.0172709;-6.09284e-05;-0.00108461;
0.0174987;-7.3599e-05;-0.000918673;
0.0177512;-7.27417e-05;-0.000734775;
0.018;-7.28401e-05;-0.000553595;
0.0180436;-2.4284e-05;-0.000591612;
0.0181308;4.33647e-05;-0.000667647;
0.0183052;8.41809e-05;-0.000819718;
0.0186093;8.78237e-05;-0.00108489;
0.0189205;8.70664e-05;-0.00135626;
0.019;8.71432e-05;-0.00142561;
0.0190622;8.37135e-05;-0.00147428;
0.0191867;7.94839e-05;-0.00157162;
0.0194357;7.80578e-05;-0.00176629;
0.0199336;7.8257e-05;-0.00215565;
0.02;7.82273e-05;-0.00220758;
0.0200291;1.1283e-06;-0.00213074;
0.0200874;-0.000118315;-0.00197704;
0.0202039;-0.000225385;-0.00166965;
0.0204369;-0.000266757;-0.00105487;
0.0206898;-0.000263506;-0.000387707;
0.021;-0.000263917;0.000430861;
0.0210315;-0.000184687;0.000409715;
0.0210945;-6.41495e-05;0.000367424;
0.0212205;3.72652e-05;0.000282841;
0.0213277;5.81116e-05;0.000210824;
0.0214788;6.58818e-05;0.000109356;
0.0216456;6.70284e-05;-2.59307e-06;
0.0219469;6.71667e-05;-0.000204915;
0.022;6.7157e-05;-0.000240574;
0.0220099;5.36648e-05;-0.000232364;
0.0220296;2.9102e-05;-0.000215944;
0.0220691;-7.88777e-06;-0.000183104;
0.022148;-5.04845e-05;-0.000117424;
0.0222716;-7.54608e-05;-1.45818e-05;
0.0223994;-8.14893e-05;9.17103e-05;
0.022546;-8.29346e-05;0.000213723;
0.0227951;-8.32271e-05;0.000420902;
0.023;-8.31981e-05;0.000591411;
0.0230498;-2.86872e-05;0.000551133;
0.0231494;4.41136e-05;0.000470576;
0.0233486;8.07837e-05;0.000309463;
0.0235495;8.08746e-05;0.000147018;
0.0237933;8.08744e-05;-5.01522e-05;
0.024;8.08744e-05;-0.000217334;
0.0240163;3.33037e-05;-0.000175132;
0.0240488;-4.85396e-05;-9.07287e-05;
0.0241139;-0.000152007;7.80777e-05;
0.0242123;-0.000222834;0.0003334;
0.0243061;-0.000246223;0.000576968;
0.0244686;-0.000258093;0.000998659;
0.0247462;-0.000259692;0.00171878;
0.025;-0.000259443;0.00237736;
0.0250555;-6.47253e-05;0.00221838;
0.0251665;0.000185793;0.0019004;
0.0253886;0.000291624;0.00126446;
0.0256221;0.000286021;0.000595547;
0.0258953;0.000286483;-0.00018692;
0.026;0.00028644;-0.000486848;
0.026018;0.000245563;-0.000490017;
0.0260539;0.000176241;-0.000496356;
0.0261257;9.25027e-05;-0.000509034;
0.0262693;2.99678e-05;-0.000534389;
0.0264107;1.97738e-05;-0.000559346;
0.026643;1.74953e-05;-0.000600364;
0.0269566;1.76877e-05;-0.000655709;
0.027;1.76753e-05;-0.000663378;
0.0270515;-8.53074e-06;-0.000632754;
0.0271544;-4.31425e-05;-0.000571506;
0.0273604;-5.97171e-05;-0.00044901;
0.027688;-5.94313e-05;-0.000254137;
0.028;-5.9499e-05;-6.85094e-05;
0.028035;-5.71328e-05;-5.0853e-05;
0.0281051;-5.36279e-05;-1.55402e-05;
0.0282453;-5.09487e-05;5.50853e-05;
0.0285257;-5.02797e-05;0.000196336;
0.0289731;-5.04119e-05;0.00042171;
0.029;-5.04032e-05;0.000435244;
0.029014;-3.0122e-05;0.000419147;
0.0290419;5.47693e-06;0.000386952;
0.0290977;5.33871e-05;0.000322562;
0.0292094;9.77462e-05;0.000193783;
0.0293667;0.000113228;1.22675e-05;
0.0295422;0.000115196;-0.000190103;
0.0297672;0.000115342;-0.000449548;
0.03;0.000115334;-0.0007181;
0.030045;8.92536e-05;-0.000732149;
0.030135;5.32673e-05;-0.000760247;
0.0303149;3.24004e-05;-0.000816443;
0.0306749;3.08924e-05;-0.000928835;
0.031;3.13065e-05;-0.00103037;
0.0310395;7.07176e-06;-0.0010089;
0.0311185;-2.76826e-05;-0.000965973;
0.0312765;-5.11995e-05;-0.000880111;
0.0315925;-5.50433e-05;-0.000708387;
0.031974;-5.41194e-05;-0.000501081;
0.032;-5.41698e-05;-0.00048698;
0.0320519;-3.80315e-05;-0.000483396;
0.0321557;-1.6776e-05;-0.000476227;
0.0323633;-6.72723e-06;-0.000461888;
0.0327785;-6.96907e-06;-0.000433212;
0.033;-6.90329e-06;-0.000417916;
0.0330403;-2.89463e-05;-0.000384182;
0.0331209;-6.03752e-05;-0.000316713;
0.0332822;-8.11698e-05;-0.000181777;
0.0335012;-8.37941e-05;1.52749e-06;
0.0337467;-8.36697e-05;0.000206928;
0.034;-8.36825e-05;0.000418896;
0.0340396;-4.02383e-05;0.00039134;
0.0341188;2.2024e-05;0.000336227;
0.0342771;6.40509e-05;0.000226;
0.0344364;6.89695e-05;0.000115146;
0.0346406;6.96077e-05;-2.69813e-05;
0.0348849;6.96008e-05;-0.000197008;
0.035;6.96013e-05;-0.000277118;
0.0350489;8.99523e-05;-0.000341438;
0.0351466;0.000117304;-0.000470077;
0.035342;0.000131475;-0.000727356;
0.0357329;0.000131704;-0.00124191;
0.036;0.00013164;-0.0015936;
0.0360528;-3.84221e-05;-0.00140308;
0.0361584;-0.000261099;-0.00102205;
0.0363696;-0.00036352;-0.000259976;
0.0365842;-0.000360764;0.000514535;
0.0367866;-0.000360858;0.00124491;
0.037;-0.000360857;0.00201497;
0.0370405;-0.000210919;0.00195027;
0.0371214;2.60707e-06;0.00182085;
0.0372834;0.000143228;0.00156202;
0.0374943;0.000160287;0.00122476;
0.0377383;0.000159808;0.000834736;
0.038;0.000159857;0.000416465;
0.038039;0.000110485;0.000422772;
0.0381171;3.94385e-05;0.000435386;
0.0382732;-9.27918e-06;0.000460615;
0.0384661;-1.60364e-05;0.000491804;
0.0386901;-1.61702e-05;0.000528008;
0.039;-1.61616e-05;0.000578096;
0.0390393;1.59068e-05;0.000539744;
0.0391179;6.19608e-05;0.000463039;
0.0392751;9.32962e-05;0.00030963;
0.0394926;9.77568e-05;9.74619e-05;
0.0397389;9.75618e-05;-0.000142898;
0.04;9.75825e-05;-0.000397704;
0.0400344;0.00010466;-0.000440757;
0.0401031;0.000115197;-0.000526861;
0.0402406;0.000123402;-0.000699071;
0.0405155;0.000125568;-0.00104349;
0.041;0.000125152;-0.00165044;
0.041055;7.57456e-06;-0.00153691;
0.041165;-0.000144205;-0.00130985;
0.0413849;-0.000209395;-0.000855736;
0.041626;-0.000206197;-0.000357849;
0.0419107;-0.000206516;0.000229807;
0.042;-0.000206487;0.000414241;
0.0420172;-0.000173793;0.000411403;
0.0420516;-0.000117994;0.000405727;
0.0421204;-4.92036e-05;0.000394375;
0.042258;4.321e-06;0.000371672;
0.0423921;1.40936e-05;0.000349543;
0.0426032;1.65664e-05;0.000314698;
0.0428692;1.64933e-05;0.000270811;
0.043;1.65004e-05;0.000249218;
0.0430171;4.81617e-05;0.000209305;
0.0430512;0.000102261;0.00012948;
0.0431195;0.000169189;-3.017e-05;
0.0432413;0.000218133;-0.000315174;
0.0433612;0.000229911;-0.00059538;
0.0435717;0.000233962;-0.0010877;
0.0439609;0.000233831;-0.00199791;
0.044;0.000233841;-0.00208941;
0.0440159;0.000156907;-0.0020373;
0.0440476;2.40967e-05;-0.00193309;
0.0441111;-0.000145591;-0.00172466;
0.0442381;-0.000287395;-0.00130781;
0.044427;-0.000327093;-0.000687667;
0.0446523;-0.000328349;5.18358e-05;
0.0449457;-0.000328266;0.00101521;
0.045;-0.000328271;0.00119338;
0.0450198;-0.000268718;0.00118686;
0.0450593;-0.000169244;0.00117381;
0.0451383;-5.47517e-05;0.0011477;
0.0452963;2.27023e-05;0.0010955;
0.0454781;3.25321e-05;0.00103547;
0.0457579;3.31144e-05;0.00094303;
0.046;3.30237e-05;0.000863068;
0.0460412;7.0002e-05;0.000797229;
0.0461235;0.000122404;0.000665552;
0.0462882;0.000156251;0.000402196;
0.0465342;0.000160273;8.87824e-06;
0.0468048;0.000159843;-0.000423791;
0.047;0.000159898;-0.000735919;
0.0470464;0.000102537;-0.000726063;
0.0471392;2.41422e-05;-0.00070635;
0.0473247;-1.95243e-05;-0.000666924;
0.0475628;-2.13985e-05;-0.000616336;
0.0478376;-2.1226e-05;-0.000557927;
0.048;-2.1247e-05;-0.000523425;
0.0480511;-4.67165e-05;-0.00047405;
0.0481534;-8.04358e-05;-0.000375298;
0.0483578;-9.67614e-05;-0.000177796;
0.0486493;-9.65591e-05;0.000103753;
0.0489221;-9.65956e-05;0.000367264;
0.049;-9.65929e-05;0.000442483;
0.0490349;-6.95932e-05;0.000439736;
0.0491047;-2.95503e-05;0.000434242;
0.0492442;1.19274e-06;0.000423256;
0.0494694;8.26478e-06;0.000405529;
0.0497116;7.83551e-06;0.000386457;
0.05;7.87949e-06;0.000363755;
0.0500441;4.35063e-05;0.000308896;
0.0501324;9.29613e-05;0.00019918;
0.0503089;0.000122358;-2.02543e-05;
0.0505402;0.000124475;-0.000307858;
0.050757;0.000124327;-0.000577488;
0.051;0.000124333;-0.000879574;
0.0510434;6.47516e-05;-0.000848017;
0.0511301;-1.83886e-05;-0.000784902;
0.0513036;-6.8873e-05;-0.000658673;
0.0515329;-7.30224e-05;-0.000491867;
0.0517957;-7.27239e-05;-0.000300636;
0.052;-7.27598e-05;-0.00015198;
0.0520434;-0.000115595;-5.89763e-05;
0.0521301;-0.000175372;0.000127031;
0.0523035;-0.000211679;0.000499045;
0.0526495;-0.000215226;0.00124099;
0.0529707;-0.000214306;0.00192993;
0.053;-0.00021435;0.00199281;
0.0530586;-0.000151;0.00201794;
0.0531759;-7.11017e-05;0.0020682;
0.0534105;-4.06212e-05;0.00216871;
0.0538796;-4.37496e-05;0.00236973;
0.054;-4.30759e-05;0.00242134;
0.0540499;8.61253e-05;0.00224905;
0.0541496;0.00025859;0.00190448;
0.0543491;0.000345267;0.00121532;
0.0546015;0.000345433;0.000343734;
0.0548932;0.000345413;-0.000663847;
0.055;0.000345415;-0.00103282;
0.0550348;0.000261296;-0.00103966;
0.0551045;0.000136498;-0.00105333;
0.0552439;4.05635e-05;-0.00108069;
0.0554509;1.92791e-05;-0.00112131;
0.0556786;1.96496e-05;-0.00116601;
0.056;1.9622e-05;-0.00122909;
0.0560409;-7.71843e-06;-0.00119856;
0.0561227;-4.65408e-05;-0.00113752;
0.0562862;-7.18178e-05;-0.00101542;
0.0566133;-7.53305e-05;-0.000771231;
0.057;-7.44326e-05;-0.000482598;
0.0570397;-6.48778e-05;-0.000466391;
0.0571192;-5.11971e-05;-0.000433978;
0.0572781;-4.1996e-05;-0.000369151;
0.0575958;-4.05284e-05;-0.000239497;
0.058;-4.08915e-05;-7.4599e-05;
0.0580405;-3.91757e-05;-6.04422e-05;
0.0581216;-3.67329e-05;-3.21285e-05;
0.0582836;-3.5126e-05;2.4499e-05;
0.0586078;-3.48923e-05;0.000137754;
0.059;-3.49515e-05;0.000274771;
0.059051;1.28383e-05;0.000220386;
0.059153;7.61578e-05;0.000111616;
0.059357;0.000106926;-0.000105923;
0.0595603;0.000106637;-0.000322708;
0.0597586;0.000106639;-0.000534177;
0.06;0.000106639;-0.000791622;
0.0600397;1.49596e-05;-0.000705784;
0.060119;-0.000116367;-0.000534107;
0.0602776;-0.000204844;-0.000190753;
0.0604475;-0.000215484;0.000176957;
0.0606077;-0.000216327;0.000523682;
0.0608657;-0.000216446;0.00108202;
0.061;-0.000216435;0.0013727;
0.0610454;-9.4248e-05;0.00129322;
0.0611363;7.38359e-05;0.00113424;
0.061318;0.000170067;0.000816281;
0.0615107;0.000174861;0.000479241;
0.0617498;0.000174964;6.0806e-05;
0.062;0.000174954;-0.00037685;
0.062033;0.000113845;-0.000353279;
0.0620991;2.19471e-05;-0.000306138;
0.0622312;-5.22471e-05;-0.000211855;
0.0623453;-6.61332e-05;-0.000130392;
0.0625043;-7.07667e-05;-1.69403e-05;
0.0626747;-7.13193e-05;0.000104686;
0.0629942;-7.13787e-05;0.000332696;
0.063;-7.13781e-05;0.000336826;
0.0630116;-5.79368e-05;0.000330077;
0.0630347;-3.38403e-05;0.000316578;
0.063081;7.75852e-07;0.000289581;
0.0631736;3.71679e-05;0.000235587;
0.0633334;5.59439e-05;0.000142387;
0.0635045;5.81298e-05;4.26295e-05;
0.063735;5.83291e-05;-9.18218e-05;
0.064;5.83142e-05;-0.000246334;
0.064031;4.96999e-05;-0.000253096;
0.0640929;3.65407e-05;-0.00026662;
0.0642167;2.53086e-05;-0.00029367;
0.0644643;2.14776e-05;-0.000347768;
0.0647894;2.19319e-05;-0.00041878;
0.065;2.18424e-05;-0.00046478;
0.0650642;-1.09142e-06;-0.000441123;
0.0651926;-2.90357e-05;-0.000393807;
0.0654494;-3.7815e-05;-0.000299177;
0.0657917;-3.65937e-05;-0.000173043;
0.066;-3.68522e-05;-9.63076e-05;
0.0660381;-4.74963e-05;-6.75365e-05;
0.0661144;-6.29108e-05;-9.99428e-06;
0.066267;-7.37398e-05;0.00010509;
0.0665721;-7.57811e-05;0.000335259;
0.066869;-7.53618e-05;0.000559164;
0.067;-7.54158e-05;0.000657993;
0.0670594;-5.83574e-05;0.000675563;
0.0671781;-3.69418e-05;0.000710703;
0.0674156;-2.89695e-05;0.000780982;
0.0678905;-2.98497e-05;0.000921541;
0.068;-2.96697e-05;0.000953944;
0.0680601;3.0425e-05;0.0008755;
0.0681803;0.000105519;0.000718613;
0.0684208;0.000132777;0.000404837;
0.0686872;0.000130172;5.71279e-05;
0.0689879;0.000130561;-0.000335281;
0.069;0.000130554;-0.000351017;
0.0690104;0.000107052;-0.000338639;
0.0690312;6.44785e-05;-0.000313884;
0.0690729;1.32676e-06;-0.000264373;
0.0691562;-6.93086e-05;-0.000165352;
0.0692677;-0.000104776;-3.2758e-05;
0.0693938;-0.000115667;0.000117087;
0.0695274;-0.000118231;0.000275883;
0.0697542;-0.00011891;0.000545526;
0.07;-0.000118866;0.000837681;
0.0700454;-6.88889e-05;0.000818908;
0.0701361;-1.08349e-07;0.000781361;
0.0703176;3.93446e-05;0.000706267;
0.0705792;4.16513e-05;0.000598014;
0.0708695;4.13308e-05;0.000477896;
0.071;4.13701e-05;0.000423876;
0.0710396;-4.11861e-06;0.00047104;
0.0711187;-6.9318e-05;0.000565368;
0.071277;-0.000113346;0.000754025;
0.0715937;-0.000120484;0.00113134;
0.0718841;-0.00011893;0.00147747;
0.072;-0.000119107;0.00161559;
0.0720581;-4.10135e-05;0.00156124;
0.0721743;5.78192e-05;0.00145255;
0.0724066;9.62139e-05;0.00123516;
0.072744;9.2879e-05;0.000919548;
0.073;9.36399e-05;0.000680021;
0.073037;6.70411e-05;0.00068184;
0.073111;2.82006e-05;0.000685479;
0.073259;4.74494e-08;0.000692755;
0.073555;-5.87513e-06;0.000707309;
0.0738578;-4.72123e-06;0.000722193;
0.074;-4.88357e-06;0.000729187;
0.0740605;4.65467e-05;0.000649523;
0.0741816;0.00011064;0.000490195;
0.0744238;0.000133562;0.000171539;
0.07471;0.000131224;-0.000205023;
0.0749796;0.000131627;-0.000559688;
0.075;0.000131617;-0.000586565;
0.0750409;0.000129733;-0.00063768;
0.0751226;0.000127056;-0.000739911;
0.075286;0.000125312;-0.000944371;
0.0756128;0.000125068;-0.00135329;
0.076;0.00012513;-0.00183772;
0.0760654;1.02879e-05;-0.00172949;
0.0761961;-0.000128661;-0.00151302;
0.0764576;-0.000170476;-0.00108009;
0.0767683;-0.000164517;-0.000565618;
0.077;-0.000165654;-0.000181954;
0.0770345;-0.000142267;-0.000156211;
0.0771036;-0.000107496;-0.000104726;
0.0772418;-8.05533e-05;-1.7553e-06;
0.077416;-7.493e-05;0.000128009;
0.0775794;-7.45522e-05;0.000249725;
0.0778941;-7.45001e-05;0.000484235;
0.078;-7.45067e-05;0.000563142;
0.0780349;-3.83763e-05;0.000540379;
0.0781048;1.51928e-05;0.000494854;
0.0782445;5.62772e-05;0.000403803;
0.0784473;6.52289e-05;0.000271634;
0.0786741;6.51679e-05;0.000123826;
0.079;6.51723e-05;-8.85732e-05;
0.0790337;6.41035e-05;-0.000109082;
0.079101;6.25037e-05;-0.0001501;
0.0792356;6.12341e-05;-0.000232135;
0.0795049;6.08796e-05;-0.000396206;
0.08;6.09443e-05;-0.000697824;
0.0800539;6.93523e-05;-0.000743593;
0.0801616;8.02855e-05;-0.000835132;
0.080377;8.51508e-05;-0.00101821;
0.0808079;8.49158e-05;-0.00138436;
0.081;8.49774e-05;-0.00154761;
0.0810586;-5.1178e-06;-0.00145443;
0.0811757;-0.000118788;-0.00126806;
0.0814101;-0.000162236;-0.000895328;
0.0816946;-0.000158522;-0.000442616;
0.082;-0.000159187;4.31191e-05;
0.0820327;-0.000135117;6.32648e-05;
0.0820982;-9.88405e-05;0.000103556;
0.0822292;-6.93275e-05;0.000184139;
0.082417;-6.17757e-05;0.000299714;
0.0826104;-6.15317e-05;0.000418698;
0.0829972;-6.1526e-05;0.000656666;
0.083;-6.1526e-05;0.000658393;
0.0830056;-5.49695e-05;0.000654915;
0.0830168;-4.25528e-05;0.00064796;
0.0830393;-2.14755e-05;0.000634049;
0.0830842;9.09507e-06;0.000606227;
0.083174;4.18359e-05;0.000550584;
0.0833536;6.08685e-05;0.000439298;
0.083604;6.20808e-05;0.000284156;
0.0839508;6.19268e-05;6.93032e-05;
0.084;6.19396e-05;3.87995e-05;
0.08401;6.8984e-05;2.48423e-05;
0.08403;8.17919e-05;-3.07222e-06;
0.0840701;0.000101003;-5.89012e-05;
0.0841502;0.000122959;-0.000170559;
0.0842735;0.00013551;-0.000342483;
0.0844726;0.000139412;-0.000620089;
0.0848435;0.000139426;-0.00113724;
0.085;0.000139423;-0.00135543;
0.0850482;5.41485e-05;-0.00129617;
0.0851446;-6.09734e-05;-0.00117764;
0.0853374;-0.000121794;-0.00094059;
0.0855872;-0.000123093;-0.000633427;
0.085874;-0.000122941;-0.000280708;
0.086;-0.000122959;-0.000125792;
0.0860204;-9.09607e-05;-0.000139238;
0.0860613;-3.78126e-05;-0.000166129;
0.086143;2.22635e-05;-0.000219911;
0.0862658;5.53681e-05;-0.0003007;
0.0863984;6.36905e-05;-0.000388004;
0.0866156;6.58952e-05;-0.000530933;
0.0869744;6.57845e-05;-0.000767003;
0.087;6.57901e-05;-0.000783882;
0.0870293;3.10535e-05;-0.000758205;
0.0870879;-2.26946e-05;-0.000706851;
0.087205;-7.06689e-05;-0.000604143;
0.0874393;-8.90099e-05;-0.000398728;
0.0876648;-8.75962e-05;-0.00020102;
0.088;-8.76955e-05;9.28738e-05;
0.0880181;-7.3382e-05;9.18418e-05;
0.0880544;-4.91423e-05;8.97779e-05;
0.0881268;-1.99912e-05;8.565e-05;
0.0882217;-3.46986e-06;8.02447e-05;
0.0883343;3.12891e-06;7.38313e-05;
0.0884754;5.25129e-06;6.5794e-05;
